Time [s],Value,ASCII
0.880727020000000,orphanedData Channel: -2 [B],[
0.881047360000000,orphanedData Channel: -2 [B],M
0.881367700000000,orphanedData Channel: -2 [B],S
0.881688040000000,orphanedData Channel: -2 [B],G
0.882008380000000,orphanedData Channel: -2 [B],]
0.882328740000000,orphanedData Channel: -2 [B], 
0.882649080000000,orphanedData Channel: -2 [B],A
0.882969420000000,orphanedData Channel: -2 [B],c
0.883289760000000,orphanedData Channel: -2 [B],t
0.883610120000000,orphanedData Channel: -2 [B],i
0.883930460000000,orphanedData Channel: -2 [B],v
0.884250800000000,orphanedData Channel: -2 [B],i
0.884571140000000,orphanedData Channel: -2 [B],t
0.884891480000000,orphanedData Channel: -2 [B],y
0.885211840000000,orphanedData Channel: -2 [B], 
0.885532180000000,orphanedData Channel: -2 [B],f
0.885852520000000,orphanedData Channel: -2 [B],r
0.886172860000000,orphanedData Channel: -2 [B],o
0.886493220000000,orphanedData Channel: -2 [B],m
0.886813560000000,orphanedData Channel: -2 [B],:
0.887133900000000,orphanedData Channel: -2 [B], 
0.887454240000000,orphanedData Channel: -2 [B],e
0.887774580000000,orphanedData Channel: -2 [B],c
0.888094940000000,orphanedData Channel: -2 [B],1
0.888415280000000,orphanedData Channel: -2 [B],c
0.888735620000000,orphanedData Channel: -2 [B],7
0.889055960000000,orphanedData Channel: -2 [B],e
0.889376320000000,orphanedData Channel: -2 [B],7
0.889696660000000,orphanedData Channel: -2 [B],4
0.890017000000000,orphanedData Channel: -2 [B],4
0.890337340000000,orphanedData Channel: -2 [B],9
0.890657680000000,orphanedData Channel: -2 [B],3
0.890978040000000,orphanedData Channel: -2 [B],4
0.891298380000000,orphanedData Channel: -2 [B],1
0.891618720000000,orphanedData Channel: -2 [B],b
0.891939060000000,orphanedData Channel: -2 [B],5
0.892259420000000,orphanedData Channel: -2 [B],8
0.892579760000000,orphanedData Channel: -2 [B],4
0.892900100000000,orphanedData Channel: -2 [B],7
0.893220440000000,orphanedData Channel: -2 [B],8
0.893540780000000,orphanedData Channel: -2 [B],c
0.893861140000000,orphanedData Channel: -2 [B],9
0.894181480000000,orphanedData Channel: -2 [B],3
0.894501820000000,orphanedData Channel: -2 [B],c
0.894822160000000,orphanedData Channel: -2 [B],2
0.895142520000000,orphanedData Channel: -2 [B],7
0.895462860000000,orphanedData Channel: -2 [B],e
0.895783200000000,orphanedData Channel: -2 [B],a
0.896103540000000,orphanedData Channel: -2 [B],6
0.896423900000000,orphanedData Channel: -2 [B],e
0.896744240000000,orphanedData Channel: -2 [B],0
0.897064580000000,orphanedData Channel: -2 [B],8
0.897384920000000,orphanedData Channel: -2 [B],a
0.897705260000000,orphanedData Channel: -2 [B],5
0.898025620000000,orphanedData Channel: -2 [B],3
0.898345960000000,orphanedData Channel: -2 [B],c
0.898666300000000,orphanedData Channel: -2 [B],c
0.898986640000000,orphanedData Channel: -2 [B],8
0.899307000000000,orphanedData Channel: -2 [B],3
0.899627340000000,orphanedData Channel: -2 [B],4
0.899947680000000,orphanedData Channel: -2 [B],2
0.900268020000000,orphanedData Channel: -2 [B],7
0.900588380000000,orphanedData Channel: -2 [B],9
0.900908720000000,orphanedData Channel: -2 [B],e
0.901229060000000,orphanedData Channel: -2 [B],1
0.901549400000000,orphanedData Channel: -2 [B],6
0.901869740000000,orphanedData Channel: -2 [B],4
0.902190100000000,orphanedData Channel: -2 [B],3
0.902510440000000,orphanedData Channel: -2 [B],d
0.902830780000000,orphanedData Channel: -2 [B],b
0.903151120000000,orphanedData Channel: -2 [B],b
0.903471480000000,orphanedData Channel: -2 [B],a
0.903791820000000,orphanedData Channel: -2 [B],9
0.904112160000000,orphanedData Channel: -2 [B],9
0.904432500000000,orphanedData Channel: -2 [B],4
0.904752840000000,orphanedData Channel: -2 [B],a
0.905073200000000,orphanedData Channel: -2 [B],0
0.905393540000000,orphanedData Channel: -2 [B],e
0.905713880000000,orphanedData Channel: -2 [B],7
0.906034220000000,orphanedData Channel: -2 [B],f
0.906354560000000,orphanedData Channel: -2 [B],3
0.906674920000000,orphanedData Channel: -2 [B],e
0.906995260000000,orphanedData Channel: -2 [B],a
0.907315600000000,orphanedData Channel: -2 [B],4
0.907635940000000,orphanedData Channel: -2 [B],3
0.907956300000000,orphanedData Channel: -2 [B],\r
0.908276640000000,orphanedData Channel: -2 [B],\n
0.908596980000000,orphanedData Channel: -2 [B],[
0.908917320000000,orphanedData Channel: -2 [B],M
0.909237660000000,orphanedData Channel: -2 [B],S
0.909558020000000,orphanedData Channel: -2 [B],G
0.909878360000000,orphanedData Channel: -2 [B],]
0.910198700000000,orphanedData Channel: -2 [B], 
0.910519040000000,orphanedData Channel: -2 [B],A
0.910839400000000,orphanedData Channel: -2 [B],c
0.911159740000000,orphanedData Channel: -2 [B],t
0.911480080000000,orphanedData Channel: -2 [B],i
0.911800420000000,orphanedData Channel: -2 [B],v
0.912120760000000,orphanedData Channel: -2 [B],i
0.912441120000000,orphanedData Channel: -2 [B],t
0.912761460000000,orphanedData Channel: -2 [B],y
0.913081800000000,orphanedData Channel: -2 [B], 
0.913402140000000,orphanedData Channel: -2 [B],f
0.913722500000000,orphanedData Channel: -2 [B],r
0.914042840000000,orphanedData Channel: -2 [B],o
0.914363180000000,orphanedData Channel: -2 [B],m
0.914683520000000,orphanedData Channel: -2 [B],:
0.915003880000000,orphanedData Channel: -2 [B], 
0.915324220000000,orphanedData Channel: -2 [B],0
0.915644560000000,orphanedData Channel: -2 [B],0
0.915964900000000,orphanedData Channel: -2 [B],3
0.916285240000000,orphanedData Channel: -2 [B],b
0.916605600000000,orphanedData Channel: -2 [B],9
0.916925940000000,orphanedData Channel: -2 [B],4
0.917246280000000,orphanedData Channel: -2 [B],3
0.917566620000000,orphanedData Channel: -2 [B],4
0.917886980000000,orphanedData Channel: -2 [B],a
0.918207320000000,orphanedData Channel: -2 [B],4
0.918527660000000,orphanedData Channel: -2 [B],5
0.918848000000000,orphanedData Channel: -2 [B],f
0.919168360000000,orphanedData Channel: -2 [B],0
0.919488700000000,orphanedData Channel: -2 [B],e
0.919809040000000,orphanedData Channel: -2 [B],e
0.920129380000000,orphanedData Channel: -2 [B],c
0.920449720000000,orphanedData Channel: -2 [B],d
0.920770080000000,orphanedData Channel: -2 [B],2
0.921090420000000,orphanedData Channel: -2 [B],d
0.921410760000000,orphanedData Channel: -2 [B],3
0.921731100000000,orphanedData Channel: -2 [B],5
0.922051460000000,orphanedData Channel: -2 [B],b
0.922371800000000,orphanedData Channel: -2 [B],c
0.922692140000000,orphanedData Channel: -2 [B],c
0.923012480000000,orphanedData Channel: -2 [B],7
0.923332820000000,orphanedData Channel: -2 [B],8
0.923653180000000,orphanedData Channel: -2 [B],1
0.923973520000000,orphanedData Channel: -2 [B],2
0.924293860000000,orphanedData Channel: -2 [B],9
0.924614200000000,orphanedData Channel: -2 [B],a
0.924934540000000,orphanedData Channel: -2 [B],a
0.925254900000000,orphanedData Channel: -2 [B],3
0.925575240000000,orphanedData Channel: -2 [B],e
0.925895580000000,orphanedData Channel: -2 [B],d
0.926215920000000,orphanedData Channel: -2 [B],c
0.926536280000000,orphanedData Channel: -2 [B],3
0.926856620000000,orphanedData Channel: -2 [B],6
0.927176960000000,orphanedData Channel: -2 [B],3
0.927497300000000,orphanedData Channel: -2 [B],f
0.927817640000000,orphanedData Channel: -2 [B],8
0.928138000000000,orphanedData Channel: -2 [B],0
0.928458340000000,orphanedData Channel: -2 [B],2
0.928778680000000,orphanedData Channel: -2 [B],a
0.929099020000000,orphanedData Channel: -2 [B],e
0.929419380000000,orphanedData Channel: -2 [B],5
0.929739720000000,orphanedData Channel: -2 [B],a
0.930060060000000,orphanedData Channel: -2 [B],b
0.930380400000000,orphanedData Channel: -2 [B],d
0.930700760000000,orphanedData Channel: -2 [B],d
0.931021100000000,orphanedData Channel: -2 [B],1
0.931341440000000,orphanedData Channel: -2 [B],6
0.931661780000000,orphanedData Channel: -2 [B],1
0.931982120000000,orphanedData Channel: -2 [B],c
0.932302480000000,orphanedData Channel: -2 [B],4
0.932622820000000,orphanedData Channel: -2 [B],f
0.932943160000000,orphanedData Channel: -2 [B],4
0.933263500000000,orphanedData Channel: -2 [B],2
0.933583860000000,orphanedData Channel: -2 [B],1
0.933904200000000,orphanedData Channel: -2 [B],c
0.934224540000000,orphanedData Channel: -2 [B],a
0.934544880000000,orphanedData Channel: -2 [B],4
0.934865220000000,orphanedData Channel: -2 [B],9
0.935185580000000,orphanedData Channel: -2 [B],a
0.935505920000000,orphanedData Channel: -2 [B],7
0.935826260000000,orphanedData Channel: -2 [B],\r
0.936146600000000,orphanedData Channel: -2 [B],\n
0.936466960000000,orphanedData Channel: -2 [B],[
0.936787300000000,orphanedData Channel: -2 [B],M
0.937107640000000,orphanedData Channel: -2 [B],S
0.937427980000000,orphanedData Channel: -2 [B],G
0.937748320000000,orphanedData Channel: -2 [B],]
0.938068680000000,orphanedData Channel: -2 [B], 
0.938389020000000,orphanedData Channel: -2 [B],A
0.938709360000000,orphanedData Channel: -2 [B],c
0.939029700000000,orphanedData Channel: -2 [B],t
0.939350060000000,orphanedData Channel: -2 [B],i
0.939670400000000,orphanedData Channel: -2 [B],v
0.939990740000000,orphanedData Channel: -2 [B],i
0.940311080000000,orphanedData Channel: -2 [B],t
0.940631440000000,orphanedData Channel: -2 [B],y
0.940951780000000,orphanedData Channel: -2 [B], 
0.941272120000000,orphanedData Channel: -2 [B],f
0.941592460000000,orphanedData Channel: -2 [B],r
0.941912800000000,orphanedData Channel: -2 [B],o
0.942233160000000,orphanedData Channel: -2 [B],m
0.942553500000000,orphanedData Channel: -2 [B],:
0.942873840000000,orphanedData Channel: -2 [B], 
0.943194180000000,orphanedData Channel: -2 [B],6
0.943514540000000,orphanedData Channel: -2 [B],5
0.943834880000000,orphanedData Channel: -2 [B],e
0.944155220000000,orphanedData Channel: -2 [B],c
0.944475560000000,orphanedData Channel: -2 [B],3
0.944795900000000,orphanedData Channel: -2 [B],1
0.945116260000000,orphanedData Channel: -2 [B],2
0.945436600000000,orphanedData Channel: -2 [B],3
0.945756940000000,orphanedData Channel: -2 [B],2
0.946077280000000,orphanedData Channel: -2 [B],5
0.946397640000000,orphanedData Channel: -2 [B],f
0.946717980000000,orphanedData Channel: -2 [B],4
0.947038320000000,orphanedData Channel: -2 [B],3
0.947358660000000,orphanedData Channel: -2 [B],f
0.947679000000000,orphanedData Channel: -2 [B],4
0.947999360000000,orphanedData Channel: -2 [B],0
0.948319700000000,orphanedData Channel: -2 [B],1
0.948640040000000,orphanedData Channel: -2 [B],0
0.948960380000000,orphanedData Channel: -2 [B],7
0.949280740000000,orphanedData Channel: -2 [B],d
0.949601080000000,orphanedData Channel: -2 [B],f
0.949921420000000,orphanedData Channel: -2 [B],c
0.950241760000000,orphanedData Channel: -2 [B],b
0.950562100000000,orphanedData Channel: -2 [B],a
0.950882460000000,orphanedData Channel: -2 [B],6
0.951202800000000,orphanedData Channel: -2 [B],5
0.951523140000000,orphanedData Channel: -2 [B],1
0.951843480000000,orphanedData Channel: -2 [B],c
0.952163840000000,orphanedData Channel: -2 [B],a
0.952484180000000,orphanedData Channel: -2 [B],b
0.952804520000000,orphanedData Channel: -2 [B],2
0.953124860000000,orphanedData Channel: -2 [B],d
0.953445200000000,orphanedData Channel: -2 [B],1
0.953765560000000,orphanedData Channel: -2 [B],a
0.954085900000000,orphanedData Channel: -2 [B],f
0.954406240000000,orphanedData Channel: -2 [B],b
0.954726580000000,orphanedData Channel: -2 [B],6
0.955046940000000,orphanedData Channel: -2 [B],d
0.955367280000000,orphanedData Channel: -2 [B],f
0.955687620000000,orphanedData Channel: -2 [B],5
0.956007960000000,orphanedData Channel: -2 [B],4
0.956328320000000,orphanedData Channel: -2 [B],5
0.956648660000000,orphanedData Channel: -2 [B],7
0.956969000000000,orphanedData Channel: -2 [B],8
0.957289340000000,orphanedData Channel: -2 [B],0
0.957609680000000,orphanedData Channel: -2 [B],6
0.957930040000000,orphanedData Channel: -2 [B],5
0.958250380000000,orphanedData Channel: -2 [B],f
0.958570720000000,orphanedData Channel: -2 [B],1
0.958891060000000,orphanedData Channel: -2 [B],d
0.959211420000000,orphanedData Channel: -2 [B],8
0.959531760000000,orphanedData Channel: -2 [B],b
0.959852100000000,orphanedData Channel: -2 [B],b
0.960172440000000,orphanedData Channel: -2 [B],a
0.960492780000000,orphanedData Channel: -2 [B],8
0.960813140000000,orphanedData Channel: -2 [B],9
0.961133480000000,orphanedData Channel: -2 [B],8
0.961453820000000,orphanedData Channel: -2 [B],0
0.961774160000000,orphanedData Channel: -2 [B],1
0.962094520000000,orphanedData Channel: -2 [B],d
0.962414860000000,orphanedData Channel: -2 [B],3
0.962735200000000,orphanedData Channel: -2 [B],e
0.963055540000000,orphanedData Channel: -2 [B],f
0.963375900000000,orphanedData Channel: -2 [B],2
0.963696240000000,orphanedData Channel: -2 [B],\r
0.964016580000000,orphanedData Channel: -2 [B],\n
0.964336920000000,orphanedData Channel: -2 [B],[
0.964657260000000,orphanedData Channel: -2 [B],M
0.964977620000000,orphanedData Channel: -2 [B],S
0.965297960000000,orphanedData Channel: -2 [B],G
0.965618300000000,orphanedData Channel: -2 [B],]
0.965938640000000,orphanedData Channel: -2 [B], 
0.966258980000000,orphanedData Channel: -2 [B],A
0.966579340000000,orphanedData Channel: -2 [B],c
0.966899680000000,orphanedData Channel: -2 [B],t
0.967220020000000,orphanedData Channel: -2 [B],i
0.967540360000000,orphanedData Channel: -2 [B],v
0.967860720000000,orphanedData Channel: -2 [B],i
0.968181060000000,orphanedData Channel: -2 [B],t
0.968501400000000,orphanedData Channel: -2 [B],y
0.968821740000000,orphanedData Channel: -2 [B], 
0.969142080000000,orphanedData Channel: -2 [B],f
0.969462440000000,orphanedData Channel: -2 [B],r
0.969782780000000,orphanedData Channel: -2 [B],o
0.970103120000000,orphanedData Channel: -2 [B],m
0.970423460000000,orphanedData Channel: -2 [B],:
0.970743820000000,orphanedData Channel: -2 [B], 
0.971064160000000,orphanedData Channel: -2 [B],2
0.971384500000000,orphanedData Channel: -2 [B],2
0.971704840000000,orphanedData Channel: -2 [B],3
0.972025200000000,orphanedData Channel: -2 [B],e
0.972345540000000,orphanedData Channel: -2 [B],6
0.972665880000000,orphanedData Channel: -2 [B],3
0.972986220000000,orphanedData Channel: -2 [B],4
0.973306560000000,orphanedData Channel: -2 [B],c
0.973626920000000,orphanedData Channel: -2 [B],e
0.973947260000000,orphanedData Channel: -2 [B],a
0.974267600000000,orphanedData Channel: -2 [B],2
0.974587940000000,orphanedData Channel: -2 [B],0
0.974908300000000,orphanedData Channel: -2 [B],3
0.975228640000000,orphanedData Channel: -2 [B],b
0.975548980000000,orphanedData Channel: -2 [B],a
0.975869320000000,orphanedData Channel: -2 [B],2
0.976189660000000,orphanedData Channel: -2 [B],c
0.976510020000000,orphanedData Channel: -2 [B],7
0.976830360000000,orphanedData Channel: -2 [B],d
0.977150700000000,orphanedData Channel: -2 [B],4
0.977471040000000,orphanedData Channel: -2 [B],e
0.977791400000000,orphanedData Channel: -2 [B],7
0.978111740000000,orphanedData Channel: -2 [B],9
0.978432080000000,orphanedData Channel: -2 [B],3
0.978752420000000,orphanedData Channel: -2 [B],1
0.979072780000000,orphanedData Channel: -2 [B],a
0.979393120000000,orphanedData Channel: -2 [B],2
0.979713460000000,orphanedData Channel: -2 [B],d
0.980033800000000,orphanedData Channel: -2 [B],a
0.980354140000000,orphanedData Channel: -2 [B],f
0.980674500000000,orphanedData Channel: -2 [B],d
0.980994840000000,orphanedData Channel: -2 [B],f
0.981315180000000,orphanedData Channel: -2 [B],0
0.981635520000000,orphanedData Channel: -2 [B],d
0.981955880000000,orphanedData Channel: -2 [B],4
0.982276220000000,orphanedData Channel: -2 [B],5
0.982596560000000,orphanedData Channel: -2 [B],2
0.982916900000000,orphanedData Channel: -2 [B],3
0.983237260000000,orphanedData Channel: -2 [B],0
0.983557600000000,orphanedData Channel: -2 [B],9
0.983877940000000,orphanedData Channel: -2 [B],c
0.984198280000000,orphanedData Channel: -2 [B],1
0.984518620000000,orphanedData Channel: -2 [B],a
0.984838980000000,orphanedData Channel: -2 [B],1
0.985159320000000,orphanedData Channel: -2 [B],e
0.985479660000000,orphanedData Channel: -2 [B],b
0.985800000000000,orphanedData Channel: -2 [B],1
0.986120340000000,orphanedData Channel: -2 [B],a
0.986440700000000,orphanedData Channel: -2 [B],2
0.986761040000000,orphanedData Channel: -2 [B],8
0.987081380000000,orphanedData Channel: -2 [B],f
0.987401720000000,orphanedData Channel: -2 [B],c
0.987722080000000,orphanedData Channel: -2 [B],2
0.988042420000000,orphanedData Channel: -2 [B],f
0.988362760000000,orphanedData Channel: -2 [B],a
0.988683100000000,orphanedData Channel: -2 [B],e
0.989003440000000,orphanedData Channel: -2 [B],0
0.989323800000000,orphanedData Channel: -2 [B],5
0.989644140000000,orphanedData Channel: -2 [B],7
0.989964480000000,orphanedData Channel: -2 [B],d
0.990284820000000,orphanedData Channel: -2 [B],f
0.990605180000000,orphanedData Channel: -2 [B],4
0.990925520000000,orphanedData Channel: -2 [B],0
0.991245860000000,orphanedData Channel: -2 [B],0
0.991566200000000,orphanedData Channel: -2 [B],\r
0.991886560000000,orphanedData Channel: -2 [B],\n
0.992206900000000,orphanedData Channel: -2 [B],[
0.992527240000000,orphanedData Channel: -2 [B],M
0.992847580000000,orphanedData Channel: -2 [B],S
0.993167920000000,orphanedData Channel: -2 [B],G
0.993488280000000,orphanedData Channel: -2 [B],]
0.993808620000000,orphanedData Channel: -2 [B], 
0.994128960000000,orphanedData Channel: -2 [B],A
0.994449300000000,orphanedData Channel: -2 [B],c
0.994769660000000,orphanedData Channel: -2 [B],t
0.995090000000000,orphanedData Channel: -2 [B],i
0.995410340000000,orphanedData Channel: -2 [B],v
0.995730680000000,orphanedData Channel: -2 [B],i
0.996051040000000,orphanedData Channel: -2 [B],t
0.996371380000000,orphanedData Channel: -2 [B],y
0.996691720000000,orphanedData Channel: -2 [B], 
0.997012060000000,orphanedData Channel: -2 [B],f
0.997332400000000,orphanedData Channel: -2 [B],r
0.997652760000000,orphanedData Channel: -2 [B],o
0.997973100000000,orphanedData Channel: -2 [B],m
0.998293440000000,orphanedData Channel: -2 [B],:
0.998613780000000,orphanedData Channel: -2 [B], 
0.998934140000000,orphanedData Channel: -2 [B],4
0.999254480000000,orphanedData Channel: -2 [B],3
0.999574820000000,orphanedData Channel: -2 [B],1
0.999895160000000,orphanedData Channel: -2 [B],d
1.000215500000000,orphanedData Channel: -2 [B],5
1.000535860000000,orphanedData Channel: -2 [B],9
1.000856200000000,orphanedData Channel: -2 [B],1
1.001176540000000,orphanedData Channel: -2 [B],c
1.001496880000000,orphanedData Channel: -2 [B],6
1.001817240000000,orphanedData Channel: -2 [B],e
1.002137580000000,orphanedData Channel: -2 [B],e
1.002457920000000,orphanedData Channel: -2 [B],d
1.002778260000000,orphanedData Channel: -2 [B],3
1.003098620000000,orphanedData Channel: -2 [B],b
1.003418960000000,orphanedData Channel: -2 [B],6
1.003739300000000,orphanedData Channel: -2 [B],e
1.004059640000000,orphanedData Channel: -2 [B],7
1.004379980000000,orphanedData Channel: -2 [B],9
1.004700340000000,orphanedData Channel: -2 [B],3
1.005020680000000,orphanedData Channel: -2 [B],b
1.005341020000000,orphanedData Channel: -2 [B],3
1.005661360000000,orphanedData Channel: -2 [B],1
1.005981720000000,orphanedData Channel: -2 [B],6
1.006302060000000,orphanedData Channel: -2 [B],d
1.006622400000000,orphanedData Channel: -2 [B],7
1.006942740000000,orphanedData Channel: -2 [B],b
1.007263080000000,orphanedData Channel: -2 [B],f
1.007583440000000,orphanedData Channel: -2 [B],6
1.007903780000000,orphanedData Channel: -2 [B],c
1.008224120000000,orphanedData Channel: -2 [B],e
1.008544460000000,orphanedData Channel: -2 [B],2
1.008864800000000,orphanedData Channel: -2 [B],e
1.009185160000000,orphanedData Channel: -2 [B],3
1.009505500000000,orphanedData Channel: -2 [B],b
1.009825840000000,orphanedData Channel: -2 [B],e
1.010146180000000,orphanedData Channel: -2 [B],5
1.010466540000000,orphanedData Channel: -2 [B],1
1.010786880000000,orphanedData Channel: -2 [B],a
